Time [s],Value,Parity Error,Framing Error
0.000025000000000,0x08,Error,Error
0.001125000000000,0x84,Error,Error
0.002265000000000,0x90,Error,Error
0.003395000000000,0x4E,Error,Error
0.004505000000000,0x00,Error,Error
0.005700000000000,0x00,Error,Error
0.006800000000000,0xC0,Error,Error
0.007915000000000,0xE8,,
0.009525000000000,0xFD,Error,
0.010630000000000,0x0B,,
0.011815000000000,0x3F,,
0.012950000000000,0x95,,
0.014300000000000,0xD7,Error,Error
0.015760000000000,0x03,,Error
0.016970000000000,0x00,Error,Error
0.018500000000000,0x00,Error,Error
0.019810000000000,0x08,,Error
0.021040000000000,0x44,Error,Error
0.022210000000000,0x01,,Error
0.023575000000000,0x80,,Error
0.024685000000000,0xDB,,Error
0.025855000000000,0xEE,Error,
0.027420000000000,0xFF,,Error
0.028535000000000,0xF7,,
0.030550000000000,0xFF,,Error
0.031665000000000,0xF1,,
0.033235000000000,0xB7,,
0.034505000000000,0x0D,,Error
0.035745000000000,0x00,Error,Error
0.036850000000000,0x02,,Error
0.038275000000000,0x00,,Error
0.039390000000000,0x80,,
0.040490000000000,0xE8,Error,
0.041590000000000,0xD0,,Error
0.042695000000000,0xA8,Error,
0.043850000000000,0xB7,Error,
0.044995000000000,0xF9,,
0.046210000000000,0x5A,Error,
0.047385000000000,0x4B,,Error
0.048490000000000,0x45,,
0.049585000000000,0x16,,Error
0.050700000000000,0xD8,Error,
0.051795000000000,0xD9,,
0.053040000000000,0x88,Error,Error
0.054150000000000,0xC4,,Error
0.055400000000000,0x90,,Error
0.056605000000000,0xBB,Error,
0.057805000000000,0xE6,Error,
0.058970000000000,0x67,,Error
0.060085000000000,0xD4,Error,
0.061250000000000,0x30,,Error
0.062445000000000,0x3E,,Error
0.063555000000000,0xDE,,Error
0.064665000000000,0x6F,Error,
0.065835000000000,0xB0,,Error
0.066945000000000,0x02,Error,Error
0.068045000000000,0x18,,
0.069140000000000,0x03,,Error
0.070265000000000,0xF5,Error,
0.071365000000000,0xFC,,
0.072770000000000,0x19,Error,Error
0.073875000000000,0x07,,
0.075060000000000,0x77,,
0.076200000000000,0x95,,
0.077350000000000,0x5F,,
0.078490000000000,0x6D,,Error
0.079615000000000,0x04,Error,Error
0.080850000000000,0x00,,Error
0.082095000000000,0x82,Error,Error
0.083200000000000,0x07,,
0.084360000000000,0x83,,
0.085455000000000,0xD0,,Error
0.086755000000000,0xC0,Error,Error
0.087860000000000,0xD9,Error,Error
0.088980000000000,0xDD,Error,
0.090075000000000,0xFF,,
0.091640000000000,0xFF,,Error
0.092760000000000,0xFF,Error,
0.094010000000000,0xBF,,Error
0.095465000000000,0xFB,Error,
0.096840000000000,0x93,Error,Error
0.098195000000000,0x22,Error,Error
0.099305000000000,0x00,Error,Error
0.100440000000000,0x00,Error,Error
0.101560000000000,0x82,Error,Error
0.102670000000000,0xC0,,
0.103765000000000,0x7F,,
0.105330000000000,0x26,,Error
0.106440000000000,0xDD,,Error
0.107590000000000,0x55,,
0.109610000000000,0xDF,Error,
0.110705000000000,0xBD,Error,
0.111805000000000,0x5A,Error,Error
0.112905000000000,0x18,Error,Error
0.114070000000000,0x00,,
0.115255000000000,0xA0,,Error
0.116835000000000,0x44,Error,Error
0.118025000000000,0x03,Error,Error
0.119310000000000,0x38,Error,
0.120405000000000,0x98,,Error
0.121615000000000,0x85,,
0.122780000000000,0xEB,,Error
0.124020000000000,0xFF,,
0.125345000000000,0xFF,,Error
0.126455000000000,0xF0,Error,
0.128465000000000,0xB7,,Error
0.129575000000000,0xC5,Error,
0.130675000000000,0xA1,Error,Error
0.131785000000000,0x14,Error,
0.132890000000000,0x08,Error,Error
0.134045000000000,0x08,,Error
0.135190000000000,0x03,,Error
0.136810000000000,0xD7,,Error
0.138130000000000,0x8C,,Error
0.139290000000000,0x0A,Error,Error
0.140465000000000,0x54,,
0.141570000000000,0xAD,,Error
0.142675000000000,0x52,Error,
0.143825000000000,0x20,,Error
0.144940000000000,0x1C,,Error
0.146135000000000,0x00,Error,Error
0.147235000000000,0xC0,,Error
0.148335000000000,0x6C,Error,
0.149435000000000,0x48,,Error
0.150540000000000,0x72,Error,
0.151640000000000,0xEF,Error,
0.152920000000000,0xAE,Error,
0.154065000000000,0xF3,,Error
0.156070000000000,0xDE,,
0.157185000000000,0xFF,,Error
0.158875000000000,0x07,,Error
0.160015000000000,0x4A,Error,Error
0.161180000000000,0x44,Error,
0.162285000000000,0x02,,Error
0.163390000000000,0x02,,
0.164485000000000,0x82,Error,Error
0.165615000000000,0x01,,Error
0.166715000000000,0x47,Error,
0.167850000000000,0xFF,,
0.168945000000000,0xBC,Error,Error
0.170245000000000,0xB5,,
0.171610000000000,0xBF,Error,
0.172740000000000,0xD9,Error,
0.173890000000000,0x35,Error,Error
0.174990000000000,0x06,Error,
0.176175000000000,0x00,Error,Error
0.177305000000000,0x00,Error,Error
0.178460000000000,0x00,Error,Error
0.179625000000000,0x04,Error,
0.180795000000000,0x01,,Error
0.182065000000000,0x00,,Error
0.183210000000000,0x80,Error,
0.184455000000000,0xFD,,
0.185600000000000,0xF3,,
0.186745000000000,0xFB,Error,
0.188095000000000,0xE5,Error,Error
0.189210000000000,0xFD,,
0.190385000000000,0x7B,,
0.191635000000000,0xDE,,
0.192865000000000,0xF7,Error,
0.194340000000000,0xA3,,Error
0.195975000000000,0xF7,Error,
0.197315000000000,0xFE,Error,
0.198500000000000,0xFF,Error,Error
0.199605000000000,0x8F,,
0.200725000000000,0x02,,Error
0.201900000000000,0xB2,,
0.203095000000000,0xFD,Error,
0.204460000000000,0xFB,Error,
0.205780000000000,0xFF,,Error
0.207865000000000,0xFF,,
0.208960000000000,0xFF,Error,
0.210700000000000,0xF3,,
0.211920000000000,0xFE,Error,
0.213070000000000,0xFF,,Error
0.214175000000000,0xFF,Error,
0.215375000000000,0x7F,Error,
0.216535000000000,0xBF,Error,
0.217870000000000,0x97,Error,
0.219165000000000,0x84,Error,
0.220260000000000,0x42,Error,Error
0.221400000000000,0x09,Error,Error
0.222520000000000,0x80,,Error
0.223695000000000,0xC8,Error,
0.224975000000000,0xFF,,
0.226110000000000,0xFF,,
0.227875000000000,0xFF,,
0.228980000000000,0xFD,Error,
0.230180000000000,0xFF,,
0.231310000000000,0xD5,Error,
0.233080000000000,0x1F,Error,
0.234175000000000,0x9B,,
0.235290000000000,0x81,,Error
0.236390000000000,0x0F,,Error
0.237595000000000,0x43,,Error
0.238700000000000,0x20,,Error
0.239935000000000,0x38,,Error
0.241110000000000,0x0F,Error,Error
0.242355000000000,0x21,Error,Error
0.243460000000000,0x01,,
0.244765000000000,0xB7,,
0.245910000000000,0xFD,Error,Error
0.247025000000000,0xEE,,
0.248620000000000,0xFF,,
0.249735000000000,0xFF,,
0.251745000000000,0xFF,,Error
0.252865000000000,0xFF,Error,
0.254385000000000,0xEF,,
0.255580000000000,0xFB,Error,
0.256955000000000,0xFF,,Error
0.258080000000000,0xFF,Error,
0.259410000000000,0xCD,,Error
0.260510000000000,0xC2,Error,Error
0.261645000000000,0xF4,,
0.262805000000000,0xF3,,Error
0.263930000000000,0xFB,Error,
0.265290000000000,0xFF,,Error
0.267370000000000,0xFF,,
0.268490000000000,0xFF,,
0.270505000000000,0xEF,Error,Error
0.271610000000000,0xC3,Error,Error
0.272745000000000,0x21,Error,Error
0.273855000000000,0xC0,Error,Error
0.276250000000000,0xA0,,
0.277405000000000,0x5F,,
0.278505000000000,0x6E,Error,Error
0.279690000000000,0x90,Error,Error
0.280860000000000,0x19,,Error
0.282070000000000,0xAA,,Error
0.283175000000000,0xE9,,Error
0.284280000000000,0x13,Error,
0.285375000000000,0x20,,Error
0.286540000000000,0x00,Error,Error
0.287650000000000,0x20,,
0.288940000000000,0xB8,,Error
0.290065000000000,0xD2,Error,
0.291175000000000,0x67,Error,Error
0.292295000000000,0xB4,,
0.293415000000000,0x77,,
0.294510000000000,0xF0,,Error
0.295910000000000,0xFF,,Error
0.297160000000000,0x7F,Error,Error
0.298615000000000,0x57,Error,Error
0.299735000000000,0x50,Error,Error
0.300920000000000,0x15,,
0.302070000000000,0xEB,,Error
0.303180000000000,0x3D,Error,Error
0.304305000000000,0xFF,Error,
0.306315000000000,0xFF,,Error
0.307460000000000,0xFF,Error,
0.308705000000000,0xE7,,
0.309850000000000,0xDD,,
0.310955000000000,0xEE,,
0.312555000000000,0xFF,,Error
0.313675000000000,0xFF,Error,
0.315675000000000,0xFF,,Error
0.317580000000000,0xFD,Error,
0.318680000000000,0x7E,Error,
0.319795000000000,0x42,Error,Error
0.320930000000000,0x05,,Error
0.322100000000000,0xAD,Error,Error
0.323340000000000,0xFF,,
0.324470000000000,0xCF,,
0.326080000000000,0xFF,,Error
0.327225000000000,0xFC,Error,
0.328610000000000,0xFF,,
0.329720000000000,0x6F,,Error
0.330830000000000,0xD5,,
0.331940000000000,0x0A,,Error
0.333060000000000,0x84,Error,Error
0.334165000000000,0x30,Error,Error
0.335310000000000,0xFA,,
0.336690000000000,0xDB,,Error
0.338045000000000,0x82,Error,
0.339395000000000,0xA1,,Error
0.340510000000000,0x19,,Error
0.341675000000000,0xA4,,
0.342830000000000,0x82,Error,
0.343975000000000,0x00,Error,Error
0.345100000000000,0x10,,Error
0.346295000000000,0x00,Error,Error
0.347420000000000,0x40,Error,
0.348520000000000,0xA0,,Error
0.349620000000000,0x54,,
0.350730000000000,0xCB,Error,Error
0.351865000000000,0x72,,
0.353000000000000,0x77,,
0.354095000000000,0x95,,Error
0.355500000000000,0xFF,,Error
0.356975000000000,0xDF,Error,
0.358625000000000,0x7F,,Error
0.359730000000000,0x14,Error,
0.360865000000000,0x24,Error,Error
0.362005000000000,0x51,,
0.363140000000000,0x86,Error,
0.364475000000000,0xF7,Error,
0.365920000000000,0xFF,,
0.367015000000000,0xFF,,
0.368820000000000,0xFD,Error,
0.370095000000000,0xFF,,Error
0.371220000000000,0xFF,,
0.372930000000000,0xFB,Error,
0.374255000000000,0xFF,,Error
0.375865000000000,0xEF,Error,
0.377380000000000,0xFF,,Error
0.378715000000000,0xA1,,Error
0.379935000000000,0x00,,Error
0.381045000000000,0x00,Error,Error
0.382180000000000,0x00,Error,
0.383275000000000,0xC0,Error,Error
0.384390000000000,0xC1,Error,
0.386000000000000,0xBD,,
0.387095000000000,0xC1,,Error
0.388290000000000,0x77,,
0.389435000000000,0xB7,,
0.390680000000000,0x6F,,Error
0.391830000000000,0xB4,Error,Error
0.392955000000000,0x02,,Error
0.394060000000000,0x02,,Error
0.395530000000000,0x00,Error,Error
0.396645000000000,0x0C,Error,
0.397740000000000,0x05,Error,Error
0.398850000000000,0x02,,Error
0.400005000000000,0x00,,Error
0.401175000000000,0x84,Error,
0.402355000000000,0x8A,Error,Error
0.403490000000000,0xD7,,
0.404735000000000,0xAF,Error,Error
0.406245000000000,0xFD,Error,Error
0.407385000000000,0xF2,,
0.408745000000000,0xDF,Error,
0.410410000000000,0xFF,,Error
0.411535000000000,0x95,Error,
0.413530000000000,0xFF,,Error
0.414650000000000,0xFF,Error,
0.415765000000000,0x7F,,
0.416935000000000,0xA7,,
0.418105000000000,0xDD,,Error
0.419355000000000,0x42,,Error
0.420465000000000,0x08,,Error
0.421585000000000,0x08,Error,Error
0.422695000000000,0xBD,,
0.423930000000000,0xFF,,Error
0.425040000000000,0xFF,Error,
0.427055000000000,0xFF,,Error
0.428180000000000,0x7F,,
0.429695000000000,0xFF,,
0.431220000000000,0xFF,,Error
0.432340000000000,0xFF,Error,
0.433515000000000,0x7F,Error,
0.435375000000000,0xF9,,Error
0.436800000000000,0xDF,Error,
0.438290000000000,0x0C,Error,Error
0.439460000000000,0x00,Error,Error
0.440670000000000,0x10,,
0.441765000000000,0x52,Error,
0.442885000000000,0xEB,,Error
0.444220000000000,0xBF,Error,
0.446340000000000,0xFF,,
0.447690000000000,0xBF,Error,
0.448835000000000,0xFD,Error,
0.450190000000000,0x0B,Error,
0.451545000000000,0xE7,,
0.452640000000000,0x58,Error,
0.453735000000000,0xA1,,
0.454855000000000,0x31,,Error
0.456390000000000,0x01,,Error
0.457530000000000,0xDE,Error,
0.458650000000000,0x81,Error,Error
0.459750000000000,0x00,,Error
0.460870000000000,0x00,,Error
0.462030000000000,0x85,Error,
0.463130000000000,0xFB,Error,
0.464225000000000,0xDD,,Error
0.465935000000000,0xFF,,
0.468005000000000,0xFF,,
0.470095000000000,0xFF,,
0.472160000000000,0xFF,,
0.473560000000000,0xFF,,Error
0.475225000000000,0xFF,,
0.476330000000000,0xFF,,
0.477900000000000,0xFF,,
0.479170000000000,0x2F,,Error
0.480365000000000,0x0A,Error,
0.481475000000000,0x97,Error,
0.482570000000000,0x5A,,Error
0.484605000000000,0xFF,,
0.486685000000000,0xFF,,Error
0.488770000000000,0xEB,,Error
0.489885000000000,0x95,Error,Error
0.491005000000000,0x7B,Error,Error
0.492125000000000,0xD0,,
0.493225000000000,0x02,,Error
0.494350000000000,0xA1,,Error
0.496375000000000,0xDD,,Error
0.497730000000000,0x80,,
0.499080000000000,0x17,Error,
0.500180000000000,0x09,Error,Error
0.501295000000000,0xC2,Error,
0.502390000000000,0x0D,Error,Error
0.503530000000000,0x00,Error,Error
0.504645000000000,0x04,,Error
0.505800000000000,0x00,Error,Error
0.506900000000000,0x06,Error,
0.508025000000000,0x83,,Error
0.509140000000000,0x20,,
0.510420000000000,0xDF,,
0.511770000000000,0x7F,Error,Error
0.512925000000000,0xF9,,
0.514025000000000,0xFD,Error,
0.515235000000000,0xDA,Error,
0.516350000000000,0xDD,,Error
0.517600000000000,0x7F,Error,
0.518700000000000,0xBF,,Error
0.519810000000000,0x11,Error,Error
0.520965000000000,0x01,,
0.522070000000000,0x48,,
0.523185000000000,0xF5,,
0.524325000000000,0xFB,Error,
0.525710000000000,0xFF,,Error
0.526820000000000,0x9D,,
0.528000000000000,0x75,Error,
0.529250000000000,0xD9,Error,
0.530475000000000,0xFF,,
0.531925000000000,0xFF,,Error
0.534035000000000,0xFF,,Error
0.535915000000000,0xFD,Error,
0.537155000000000,0xFF,,Error
0.538570000000000,0xCF,Error,Error
0.539675000000000,0x0D,,Error
0.540815000000000,0x42,Error,Error
0.541940000000000,0xF1,,
0.543180000000000,0xFD,Error,
0.544275000000000,0xBD,,
0.545475000000000,0xFD,Error,Error
0.546590000000000,0xFF,Error,
0.547765000000000,0x5B,Error,
0.548910000000000,0xA4,,
0.550005000000000,0x4A,Error,Error
0.551175000000000,0x52,,Error
0.552275000000000,0xA8,Error,Error
0.553430000000000,0xF0,,
0.554615000000000,0xB7,,Error
0.556090000000000,0x03,Error,Error
0.557335000000000,0x77,,
0.558480000000000,0x95,,Error
0.559605000000000,0x4A,,
0.560700000000000,0x88,Error,Error
0.561800000000000,0x08,,Error
0.562900000000000,0x00,Error,
0.563995000000000,0x00,Error,Error
0.565190000000000,0x40,,Error
0.566350000000000,0x10,Error,
0.567530000000000,0xA0,,Error
0.568665000000000,0xC0,Error,
0.569785000000000,0x7C,Error,Error
0.570920000000000,0xF2,Error,Error
0.572055000000000,0x7F,Error,Error
0.573470000000000,0x53,,Error
0.575430000000000,0xFE,Error,
0.576595000000000,0xFF,,Error
0.578005000000000,0xDF,Error,
0.579200000000000,0x23,,Error
0.580365000000000,0x82,Error,Error
0.581520000000000,0x80,,Error
0.582625000000000,0x78,,
0.583720000000000,0xFD,Error,
0.584835000000000,0xFE,Error,
0.585970000000000,0xFF,,Error
0.587090000000000,0xFF,,
0.589095000000000,0xFF,,Error
0.590810000000000,0xFF,,
0.592235000000000,0xFF,,Error
0.593340000000000,0xFF,Error,
0.595350000000000,0xFF,,Error
0.596910000000000,0x6F,,Error
0.598175000000000,0x1E,Error,Error
0.599505000000000,0x00,Error,Error
0.600760000000000,0x00,Error,Error
0.601925000000000,0x00,Error,Error
0.603085000000000,0xC0,Error,
0.604300000000000,0x7D,,Error
0.605815000000000,0x5B,,Error
0.606930000000000,0x74,,
0.608205000000000,0xAF,Error,
0.609300000000000,0xFF,,Error
0.610495000000000,0xCA,,
0.611640000000000,0xA5,,
0.612740000000000,0x43,,Error
0.613840000000000,0x20,,Error
0.614950000000000,0x00,Error,Error
0.616285000000000,0xA8,,Error
0.617640000000000,0x10,,Error
0.618755000000000,0x18,Error,Error
0.620035000000000,0x0A,Error,Error
0.621150000000000,0x00,Error,Error
0.622255000000000,0xB5,,Error
0.623485000000000,0x7D,,Error
0.624710000000000,0x5F,,
0.626375000000000,0xE5,Error,Error
0.627485000000000,0xF3,Error,
0.628845000000000,0xDF,Error,
0.630055000000000,0xEF,Error,Error
0.631280000000000,0xFB,Error,
0.632615000000000,0xFF,,Error
0.633740000000000,0xFF,Error,
0.635650000000000,0x76,,
0.636775000000000,0xD5,Error,Error
0.638235000000000,0x99,,
0.639495000000000,0xA9,Error,Error
0.640610000000000,0x18,,Error
0.641730000000000,0xAD,,
0.642895000000000,0x7A,Error,
0.644000000000000,0xFE,Error,
0.645095000000000,0xFF,,Error
0.646225000000000,0xFF,Error,
0.648115000000000,0xFE,Error,
0.649260000000000,0xFF,,Error
0.650360000000000,0xFF,Error,
0.651735000000000,0xDF,Error,
0.653420000000000,0xFF,,Error
0.654645000000000,0x7E,,
0.656450000000000,0xFE,,Error
0.657895000000000,0x20,,Error
0.659035000000000,0x00,Error,Error
0.660230000000000,0x88,Error,Error
0.661330000000000,0x40,Error,Error
0.662465000000000,0xEC,Error,Error
0.663565000000000,0xFF,,
0.664800000000000,0xFF,,
0.666160000000000,0xDF,Error,
0.667505000000000,0xD5,Error,
0.669270000000000,0x5B,Error,
0.670625000000000,0xEF,Error,
0.671730000000000,0xD2,,Error
0.673045000000000,0x88,,Error
0.674150000000000,0x4C,,Error
0.675570000000000,0x00,Error,
0.676665000000000,0x7F,Error,
0.677760000000000,0x06,,Error
0.678865000000000,0x01,,Error
0.680010000000000,0x01,,
0.681220000000000,0xAC,,
0.682315000000000,0xDE,,Error
0.683435000000000,0xFA,,
0.685160000000000,0xFF,,Error
0.687245000000000,0xFF,,Error
0.688370000000000,0xFF,Error,
0.690295000000000,0xFE,Error,
0.691415000000000,0xF7,Error,
0.692530000000000,0xFF,Error,
0.694040000000000,0xEF,Error,
0.695580000000000,0xFF,,Error
0.696915000000000,0xBF,Error,
0.698305000000000,0xF7,Error,
0.699605000000000,0x56,,
0.700790000000000,0xC5,Error,Error
0.701955000000000,0xA5,,
0.703255000000000,0xDF,Error,
0.704955000000000,0xFF,,Error
0.706055000000000,0xFF,Error,
0.707355000000000,0xBD,,Error
0.708480000000000,0x10,,Error
0.709610000000000,0xA2,Error,Error
0.710760000000000,0x52,Error,Error
0.711905000000000,0x75,,
0.713005000000000,0xFA,,
0.714220000000000,0xEB,Error,
0.715565000000000,0x03,Error,Error
0.716815000000000,0x77,,
0.717960000000000,0x95,,
0.719095000000000,0x57,,
0.720245000000000,0x21,Error,Error
0.721480000000000,0x00,Error,Error
0.722615000000000,0x00,Error,Error
0.723725000000000,0xA0,Error,Error
0.724910000000000,0x18,Error,Error
0.726140000000000,0x06,Error,Error
0.727260000000000,0x92,,Error
0.728375000000000,0x03,Error,Error
0.729490000000000,0xBE,Error,
0.730825000000000,0xE9,Error,
0.732005000000000,0xEF,Error,
0.733560000000000,0xFF,,Error
0.734745000000000,0xEE,Error,
0.735850000000000,0x7B,,
0.736995000000000,0xBF,Error,
0.738330000000000,0xF7,Error,
0.739520000000000,0x29,,Error
0.740625000000000,0x1C,Error,Error
0.741885000000000,0x4A,Error,Error
0.743075000000000,0xF7,,
0.744580000000000,0xB7,,
0.745735000000000,0xAA,Error,
0.747085000000000,0x97,Error,Error
0.748195000000000,0xFF,Error,
0.750205000000000,0xFF,,
0.751310000000000,0xFF,,
0.753330000000000,0xFF,,Error
0.754435000000000,0xFF,Error,
0.755900000000000,0xEF,Error,
0.757110000000000,0xF3,,
0.758310000000000,0xFD,,
0.759550000000000,0x25,,Error
0.760655000000000,0x02,,Error
0.761795000000000,0x94,,
0.762990000000000,0xA9,Error,Error
0.764095000000000,0x8F,Error,
0.765810000000000,0x6D,,Error
0.766920000000000,0x81,Error,
0.768015000000000,0x00,Error,Error
0.769140000000000,0x68,,
0.770235000000000,0xD7,Error,
0.771345000000000,0xB1,Error,
0.772510000000000,0x7F,Error,
0.773620000000000,0xBB,,Error
0.774735000000000,0x41,,
0.776005000000000,0xB7,Error,
0.777150000000000,0xF9,,
0.778505000000000,0xEB,Error,Error
0.779755000000000,0x00,Error,Error
0.780895000000000,0x00,Error,
0.781990000000000,0x01,,Error
0.783145000000000,0x00,Error,Error
0.784285000000000,0x00,Error,Error
0.785420000000000,0x02,,
0.786645000000000,0xA0,,Error
0.787790000000000,0x40,,Error
0.788900000000000,0xE4,Error,Error
0.790015000000000,0x70,Error,
0.791125000000000,0x7F,Error,Error
0.792240000000000,0x9B,,
0.793625000000000,0xFF,,Error
0.794760000000000,0xFF,Error,
0.796715000000000,0xFF,,Error
0.798090000000000,0xAF,,
0.799560000000000,0x21,Error,Error
0.800675000000000,0x44,Error,
0.801780000000000,0xA4,,
0.802905000000000,0xDE,,
0.804040000000000,0xEF,Error,Error
0.806125000000000,0xFF,,
0.807220000000000,0xFF,,Error
0.809250000000000,0xEF,Error,
0.810350000000000,0xFF,Error,
0.812380000000000,0xFF,,Error
0.813960000000000,0xEF,Error,
0.815505000000000,0xFF,,Error
0.816860000000000,0xA1,Error,Error
0.818345000000000,0x02,,
0.819440000000000,0x00,Error,Error
0.820570000000000,0x00,Error,Error
0.821810000000000,0x04,,Error
0.822910000000000,0x5E,Error,
0.824050000000000,0xBB,,Error
0.825420000000000,0x82,Error,
0.826770000000000,0xB7,,
0.827915000000000,0xF9,,
0.829275000000000,0x4D,,
0.830375000000000,0xA9,,Error
0.831485000000000,0x42,Error,
0.832580000000000,0x02,,Error
0.833680000000000,0x01,,
0.834890000000000,0xA0,,Error
0.836865000000000,0x00,,
0.838010000000000,0x80,,Error
0.839280000000000,0x29,,Error
0.840385000000000,0x1C,,Error
